[2019-08-06 14:10:01_TX_\\.\COM10]
[2019-08-06 14:10:01_TX_\\.\COM10];
[2019-08-06 14:10:02_TX_\\.\COM10];
[2019-08-06 14:10:03_TX_\\.\COM10];
[2019-08-06 14:10:04_TX_\\.\COM10];
[2019-08-06 14:10:05_TX_\\.\COM10]05 3B 01 00 00 00 00 00 F1 B0 
[2019-08-06 14:10:05_TX_\\.\COM10]06 3B 01 00 00 00 00 00 21 3A 
[2019-08-06 14:10:06_TX_\\.\COM10]07 3B 01 00 00 00 00 00 9E BB 
[2019-08-06 14:10:07_TX_\\.\COM10]08 3B 01 00 00 00 00 00 2C 0A 
[2019-08-06 14:10:08_TX_\\.\COM10]09 3B 01 00 00 00 00 00 93 8B 
[2019-08-06 14:10:09_TX_\\.\COM10]0A 3B 01 00 00 00 00 00 43 01 
[2019-08-06 14:10:10_TX_\\.\COM10]0B 3B 01 00 00 00 00 00 FC 80 
[2019-08-06 14:10:11_TX_\\.\COM10]0C 3B 01 00 00 00 00 00 F2 1C 
[2019-08-06 14:10:11_TX_\\.\COM10]0D 3B 01 00 00 00 00 00 4D 9D 
[2019-08-06 14:10:12_TX_\\.\COM10]0E 3B 01 00 00 00 00 00 9D 17 
[2019-08-06 14:10:13_TX_\\.\COM10]0F 3B 01 00 00 00 00 00 22 96 
[2019-08-06 14:10:14_TX_\\.\COM10]10 3B 01 00 00 00 00 00 E8 7C 
[2019-08-06 14:10:15_TX_\\.\COM10]11 3B 01 00 00 00 00 00 57 FD 
[2019-08-06 14:10:15_TX_\\.\COM10]12 3B 01 00 00 00 00 00 87 77 
[2019-08-06 14:10:16_TX_\\.\COM10]13 3B 01 00 00 00 00 00 38 F6 
[2019-08-06 14:10:17_TX_\\.\COM10]14 3B 01 00 00 00 00 00 36 6A 
[2019-08-06 14:10:18_TX_\\.\COM10]15 3B 01 00 00 00 00 00 89 EB 
[2019-08-06 14:10:19_TX_\\.\COM10]16 3B 01 00 00 00 00 00 59 61 
[2019-08-06 14:10:20_TX_\\.\COM10]17 3B 01 00 00 00 00 00 E6 E0 
[2019-08-06 14:10:20_TX_\\.\COM10]18 3B 01 00 00 00 00 00 54 51 
[2019-08-06 14:10:21_TX_\\.\COM10]19 3B 01 00 00 00 00 00 EB D0 
[2019-08-06 14:10:22_TX_\\.\COM10]1A 3B 01 00 00 00 00 00 3B 5A 
[2019-08-06 14:10:23_TX_\\.\COM10]1B 3B 01 00 00 00 00 00 84 DB 
[2019-08-06 14:10:24_TX_\\.\COM10]1C 3B 01 00 00 00 00 00 8A 47 
[2019-08-06 14:10:25_TX_\\.\COM10]1D 3B 01 00 00 00 00 00 35 C6 
[2019-08-06 14:10:26_TX_\\.\COM10]1E 3B 01 00 00 00 00 00 E5 4C 
[2019-08-06 14:10:26_TX_\\.\COM10]1F 3B 01 00 00 00 00 00 5A CD 
[2019-08-06 14:10:27_TX_\\.\COM10]20 3B 01 00 00 00 00 00 60 91 
[2019-08-06 14:10:28_TX_\\.\COM10]21 3B 01 00 00 00 00 00 DF 10 
[2019-08-06 14:10:29_TX_\\.\COM10]22 3B 01 00 00 00 00 00 0F 9A 
[2019-08-06 14:10:30_TX_\\.\COM10]23 3B 01 00 00 00 00 00 B0 1B 
[2019-08-06 14:10:30_TX_\\.\COM10]24 3B 01 00 00 00 00 00 BE 87 
[2019-08-06 14:10:31_TX_\\.\COM10]25 3B 01 00 00 00 00 00 01 06 
[2019-08-06 14:10:32_TX_\\.\COM10]26 3B 01 00 00 00 00 00 D1 8C 
[2019-08-06 14:10:33_TX_\\.\COM10]27 3B 01 00 00 00 00 00 6E 0D 
[2019-08-06 14:10:34_TX_\\.\COM10]28 3B 01 00 00 00 00 00 DC BC 
[2019-08-06 14:10:35_TX_\\.\COM10]29 3B 01 00 00 00 00 00 63 3D 
[2019-08-06 14:10:35_TX_\\.\COM10]2A 3B 01 00 00 00 00 00 B3 B7 
[2019-08-06 14:10:36_TX_\\.\COM10]2B 3B 01 00 00 00 00 00 0C 36 
[2019-08-06 14:10:37_TX_\\.\COM10]2C 3B 01 00 00 00 00 00 02 AA 
[2019-08-06 14:10:38_TX_\\.\COM10]2D 3B 01 00 00 00 00 00 BD 2B 
[2019-08-06 14:10:39_TX_\\.\COM10]2E 3B 01 00 00 00 00 00 6D A1 
[2019-08-06 14:10:40_TX_\\.\COM10]2F 3B 01 00 00 00 00 00 D2 20 
[2019-08-06 14:10:41_TX_\\.\COM10]30 3B 01 00 00 00 00 00 18 CA 
[2019-08-06 14:10:41_TX_\\.\COM10]31 3B 01 00 00 00 00 00 A7 4B 
[2019-08-06 14:10:42_TX_\\.\COM10]32 3B 01 00 00 00 00 00 77 C1 
[2019-08-06 14:10:43_TX_\\.\COM10]33 3B 01 00 00 00 00 00 C8 40 
[2019-08-06 14:10:44_TX_\\.\COM10]34 3B 01 00 00 00 00 00 C6 DC 
[2019-08-06 14:10:45_TX_\\.\COM10]35 3B 01 00 00 00 00 00 79 5D 
[2019-08-06 14:10:45_TX_\\.\COM10]36 3B 01 00 00 00 00 00 A9 D7 
[2019-08-06 14:10:46_TX_\\.\COM10]37 3B 01 00 00 00 00 00 16 56 
[2019-08-06 14:10:47_TX_\\.\COM10]38 3B 01 00 00 00 00 00 A4 E7 
[2019-08-06 14:10:48_TX_\\.\COM10]39 3B 01 00 00 00 00 00 1B 66 
[2019-08-06 14:10:49_TX_\\.\COM10]3A 3B 01 00 00 00 00 00 CB EC 
[2019-08-06 14:10:50_TX_\\.\COM10]3B 3B 01 00 00 00 00 00 74 6D 
[2019-08-06 14:10:50_TX_\\.\COM10]3C 3B 01 00 00 00 00 00 7A F1 
[2019-08-06 14:10:51_TX_\\.\COM10]3D 3B 01 00 00 00 00 00 C5 70 
[2019-08-06 14:10:52_TX_\\.\COM10]3E 3B 01 00 00 00 00 00 15 FA 
[2019-08-06 14:10:53_TX_\\.\COM10]3F 3B 01 00 00 00 00 00 AA 7B 
[2019-08-06 14:10:54_TX_\\.\COM10]5E 50 30 30 30 4D 4F 44 
[2019-08-06 14:10:55_TX_\\.\COM10]5E 50 30 30 31 4D 4F 44 
[2019-08-06 14:10:56_TX_\\.\COM10]5E 50 30 30 32 4D 4F 44 
[2019-08-06 14:10:56_TX_\\.\COM10]5E 50 30 30 33 4D 4F 44 
[2019-08-06 14:10:57_TX_\\.\COM10]5E 50 30 30 34 4D 4F 44 
[2019-08-06 14:10:58_TX_\\.\COM10]5E 50 30 30 35 4D 4F 44 
[2019-08-06 14:10:59_TX_\\.\COM10]5E 50 30 30 36 4D 4F 44 
[2019-08-06 14:11:00_TX_\\.\COM10]5E 50 30 30 37 4D 4F 44 
[2019-08-06 14:11:00_TX_\\.\COM10]5E 50 30 30 38 4D 4F 44 
[2019-08-06 14:11:01_TX_\\.\COM10]5E 50 30 30 39 4D 4F 44 
[2019-08-06 14:11:02_TX_\\.\COM10]5E 50 30 31 30 4D 4F 44 
[2019-08-06 14:11:03_TX_\\.\COM10]5E 50 30 31 31 4D 4F 44 
[2019-08-06 14:11:04_TX_\\.\COM10]5E 50 30 31 32 4D 4F 44 
[2019-08-06 14:11:05_TX_\\.\COM10]5E 50 30 31 33 4D 4F 44 
[2019-08-06 14:11:05_TX_\\.\COM10]5E 50 30 31 34 4D 4F 44 
[2019-08-06 14:11:06_TX_\\.\COM10]5E 50 30 31 35 4D 4F 44 
[2019-08-06 14:11:07_TX_\\.\COM10]5E 50 30 31 36 4D 4F 44 
[2019-08-06 14:11:08_TX_\\.\COM10]5E 50 30 31 37 4D 4F 44 
[2019-08-06 14:11:09_TX_\\.\COM10]5E 50 30 31 38 4D 4F 44 
[2019-08-06 14:11:10_TX_\\.\COM10]5E 50 30 31 39 4D 4F 44 
[2019-08-06 14:11:11_TX_\\.\COM10]5E 50 30 32 30 4D 4F 44 
[2019-08-06 14:11:11_TX_\\.\COM10]5E 50 30 32 31 4D 4F 44 
[2019-08-06 14:11:12_TX_\\.\COM10]5E 50 30 32 32 4D 4F 44 
[2019-08-06 14:11:13_TX_\\.\COM10]5E 50 30 32 33 4D 4F 44 
[2019-08-06 14:11:14_TX_\\.\COM10]5E 50 30 32 34 4D 4F 44 
[2019-08-06 14:11:15_TX_\\.\COM10]5E 50 30 32 35 4D 4F 44 
[2019-08-06 14:11:15_TX_\\.\COM10]5E 50 30 32 36 4D 4F 44 
[2019-08-06 14:11:16_TX_\\.\COM10]5E 50 30 32 37 4D 4F 44 
[2019-08-06 14:11:17_TX_\\.\COM10]5E 50 30 32 38 4D 4F 44 
[2019-08-06 14:11:18_TX_\\.\COM10]5E 50 30 32 39 4D 4F 44 
[2019-08-06 14:11:19_TX_\\.\COM10]5E 50 30 33 30 4D 4F 44 
[2019-08-06 14:11:20_TX_\\.\COM10]5E 50 30 33 31 4D 4F 44 
[2019-08-06 14:11:21_TX_\\.\COM10]5E 50 30 33 32 4D 4F 44 
[2019-08-06 14:11:21_TX_\\.\COM10]5E 50 30 33 33 4D 4F 44 
[2019-08-06 14:11:22_TX_\\.\COM10]5E 50 30 33 34 4D 4F 44 
[2019-08-06 14:11:23_TX_\\.\COM10]5E 50 30 33 35 4D 4F 44 
[2019-08-06 14:11:24_TX_\\.\COM10]5E 50 30 33 36 4D 4F 44 
[2019-08-06 14:11:25_TX_\\.\COM10]5E 50 30 33 37 4D 4F 44 
[2019-08-06 14:11:26_TX_\\.\COM10]5E 50 30 33 38 4D 4F 44 
[2019-08-06 14:11:26_TX_\\.\COM10]5E 50 30 33 39 4D 4F 44 
[2019-08-06 14:11:27_TX_\\.\COM10]5E 50 30 34 30 4D 4F 44 
[2019-08-06 14:11:28_TX_\\.\COM10]5E 50 30 34 31 4D 4F 44 
[2019-08-06 14:11:29_TX_\\.\COM10]5E 50 30 34 32 4D 4F 44 
[2019-08-06 14:11:30_TX_\\.\COM10]5E 50 30 34 33 4D 4F 44 
[2019-08-06 14:11:30_TX_\\.\COM10]5E 50 30 34 34 4D 4F 44 
[2019-08-06 14:11:31_TX_\\.\COM10]5E 50 30 34 35 4D 4F 44 
[2019-08-06 14:11:32_TX_\\.\COM10]5E 50 30 34 36 4D 4F 44 
[2019-08-06 14:11:33_TX_\\.\COM10]5E 50 30 34 37 4D 4F 44 
[2019-08-06 14:11:34_TX_\\.\COM10]5E 50 30 34 38 4D 4F 44 
[2019-08-06 14:11:35_TX_\\.\COM10]5E 50 30 34 39 4D 4F 44 
[2019-08-06 14:11:36_TX_\\.\COM10]5E 50 30 35 30 4D 4F 44 
[2019-08-06 14:11:36_TX_\\.\COM10]5E 50 30 35 31 4D 4F 44 
[2019-08-06 14:11:37_TX_\\.\COM10]5E 50 30 35 32 4D 4F 44 
[2019-08-06 14:11:38_TX_\\.\COM10]5E 50 30 35 33 4D 4F 44 
[2019-08-06 14:11:39_TX_\\.\COM10]5E 50 30 35 34 4D 4F 44 
[2019-08-06 14:11:40_TX_\\.\COM10]5E 50 30 35 35 4D 4F 44 
[2019-08-06 14:11:41_TX_\\.\COM10]5E 50 30 35 36 4D 4F 44 
[2019-08-06 14:11:41_TX_\\.\COM10]5E 50 30 35 37 4D 4F 44 
[2019-08-06 14:11:42_TX_\\.\COM10]5E 50 30 35 38 4D 4F 44 
[2019-08-06 14:11:43_TX_\\.\COM10]5E 50 30 35 39 4D 4F 44 
[2019-08-06 14:11:44_TX_\\.\COM10]5E 50 30 36 30 4D 4F 44 
[2019-08-06 14:11:45_TX_\\.\COM10]5E 50 30 36 31 4D 4F 44 
[2019-08-06 14:11:45_TX_\\.\COM10]5E 50 30 36 32 4D 4F 44 
[2019-08-06 14:11:46_TX_\\.\COM10]5E 50 30 36 33 4D 4F 44 
[2019-08-06 14:11:47_TX_\\.\COM10]5E 50 30 36 34 4D 4F 44 
[2019-08-06 14:11:48_TX_\\.\COM10]5E 50 30 36 35 4D 4F 44 
[2019-08-06 14:11:49_TX_\\.\COM10]5E 50 30 36 36 4D 4F 44 
[2019-08-06 14:11:50_TX_\\.\COM10]5E 50 30 36 37 4D 4F 44 
[2019-08-06 14:11:50_TX_\\.\COM10]5E 50 30 36 38 4D 4F 44 
[2019-08-06 14:11:51_TX_\\.\COM10]5E 50 30 36 39 4D 4F 44 
[2019-08-06 14:11:52_TX_\\.\COM10]5E 50 30 37 30 4D 4F 44 
[2019-08-06 14:11:53_TX_\\.\COM10]5E 50 30 37 31 4D 4F 44 
[2019-08-06 14:11:54_TX_\\.\COM10]5E 50 30 37 32 4D 4F 44 
[2019-08-06 14:11:55_TX_\\.\COM10]5E 50 30 37 33 4D 4F 44 
[2019-08-06 14:11:56_TX_\\.\COM10]5E 50 30 37 34 4D 4F 44 
[2019-08-06 14:11:56_TX_\\.\COM10]5E 50 30 37 35 4D 4F 44 
[2019-08-06 14:11:57_TX_\\.\COM10]5E 50 30 37 36 4D 4F 44 
[2019-08-06 14:11:58_TX_\\.\COM10]5E 50 30 37 37 4D 4F 44 
[2019-08-06 14:11:59_TX_\\.\COM10]5E 50 30 37 38 4D 4F 44 
[2019-08-06 14:12:00_TX_\\.\COM10]5E 50 30 37 39 4D 4F 44 
[2019-08-06 14:12:00_TX_\\.\COM10]5E 50 30 38 30 4D 4F 44 
[2019-08-06 14:12:01_TX_\\.\COM10]5E 50 30 38 31 4D 4F 44 
[2019-08-06 14:12:02_TX_\\.\COM10]5E 50 30 38 32 4D 4F 44 
[2019-08-06 14:12:03_TX_\\.\COM10]5E 50 30 38 33 4D 4F 44 
[2019-08-06 14:12:04_TX_\\.\COM10]5E 50 30 38 34 4D 4F 44 
[2019-08-06 14:12:05_TX_\\.\COM10]5E 50 30 38 35 4D 4F 44 
[2019-08-06 14:12:06_TX_\\.\COM10]5E 50 30 38 36 4D 4F 44 
[2019-08-06 14:12:06_TX_\\.\COM10]5E 50 30 38 37 4D 4F 44 
[2019-08-06 14:12:07_TX_\\.\COM10]5E 50 30 38 38 4D 4F 44 
[2019-08-06 14:12:08_TX_\\.\COM10]5E 50 30 38 39 4D 4F 44 
[2019-08-06 14:12:09_TX_\\.\COM10]5E 50 30 39 30 4D 4F 44 
[2019-08-06 14:12:10_TX_\\.\COM10]5E 50 30 39 31 4D 4F 44 
[2019-08-06 14:12:11_TX_\\.\COM10]5E 50 30 39 32 4D 4F 44 
[2019-08-06 14:12:11_TX_\\.\COM10]5E 50 30 39 33 4D 4F 44 
[2019-08-06 14:12:12_TX_\\.\COM10]5E 50 30 39 34 4D 4F 44 
[2019-08-06 14:12:13_TX_\\.\COM10]5E 50 30 39 35 4D 4F 44 
[2019-08-06 14:12:14_TX_\\.\COM10]5E 50 30 39 36 4D 4F 44 
[2019-08-06 14:12:15_TX_\\.\COM10]5E 50 30 39 37 4D 4F 44 
[2019-08-06 14:12:15_TX_\\.\COM10]5E 50 30 39 38 4D 4F 44 
[2019-08-06 14:12:16_TX_\\.\COM10]5E 50 30 39 39 4D 4F 44 
[2019-08-06 14:12:17_TX_\\.\COM10]0A 96 00 54 18 05 6C 
[2019-08-06 14:12:18_TX_\\.\COM10]0A 96 01 54 18 05 6D 
[2019-08-06 14:12:19_TX_\\.\COM10]0A 96 02 54 18 05 6E 
[2019-08-06 14:12:20_TX_\\.\COM10]0A 96 03 54 18 05 6F 
[2019-08-06 14:12:21_TX_\\.\COM10]0A 96 04 54 18 05 70 
[2019-08-06 14:12:21_TX_\\.\COM10]0A 96 05 54 18 05 71 
[2019-08-06 14:12:22_TX_\\.\COM10]0A 96 06 54 18 05 72 
[2019-08-06 14:12:23_TX_\\.\COM10]0A 96 07 54 18 05 73 
[2019-08-06 14:12:24_TX_\\.\COM10]0A 96 08 54 18 05 74 
[2019-08-06 14:12:25_TX_\\.\COM10]0A 96 09 54 18 05 75 
[2019-08-06 14:12:26_TX_\\.\COM10]0A 96 0A 54 18 05 76 
[2019-08-06 14:12:26_TX_\\.\COM10]0A 96 0B 54 18 05 77 
[2019-08-06 14:12:27_TX_\\.\COM10]0A 96 0C 54 18 05 78 
[2019-08-06 14:12:28_TX_\\.\COM10]0A 96 0D 54 18 05 79 
[2019-08-06 14:12:29_TX_\\.\COM10]0A 96 0E 54 18 05 7A 
[2019-08-06 14:12:30_TX_\\.\COM10]0A 96 0F 54 18 05 7B 
[2019-08-06 14:12:30_TX_\\.\COM10]0A 96 10 54 18 05 7C 
[2019-08-06 14:12:31_TX_\\.\COM10]0A 96 11 54 18 05 7D 
[2019-08-06 14:12:32_TX_\\.\COM10]0A 96 12 54 18 05 7E 
[2019-08-06 14:12:33_TX_\\.\COM10]0A 96 13 54 18 05 7F 
[2019-08-06 14:12:34_TX_\\.\COM10]0A 96 14 54 18 05 80 
[2019-08-06 14:12:35_TX_\\.\COM10]0A 96 15 54 18 05 81 
[2019-08-06 14:12:35_TX_\\.\COM10]0A 96 16 54 18 05 82 
[2019-08-06 14:12:36_TX_\\.\COM10]0A 96 17 54 18 05 83 
[2019-08-06 14:12:37_TX_\\.\COM10]0A 96 18 54 18 05 84 
[2019-08-06 14:12:38_TX_\\.\COM10]0A 96 19 54 18 05 85 
[2019-08-06 14:12:39_TX_\\.\COM10]0A 96 1A 54 18 05 86 
[2019-08-06 14:12:40_TX_\\.\COM10]0A 96 1B 54 18 05 87 
[2019-08-06 14:12:40_TX_\\.\COM10]0A 96 1C 54 18 05 88 
[2019-08-06 14:12:41_TX_\\.\COM10]0A 96 1D 54 18 05 89 
[2019-08-06 14:12:42_TX_\\.\COM10]0A 96 1E 54 18 05 8A 
[2019-08-06 14:12:43_TX_\\.\COM10]0A 96 1F 54 18 05 8B 
[2019-08-06 14:12:44_TX_\\.\COM10]0A 96 20 54 18 05 8C 
[2019-08-06 14:12:45_TX_\\.\COM10]0A 96 21 54 18 05 8D 
[2019-08-06 14:12:45_TX_\\.\COM10]0A 96 22 54 18 05 8E 
[2019-08-06 14:12:46_TX_\\.\COM10]0A 96 23 54 18 05 8F 
[2019-08-06 14:12:47_TX_\\.\COM10]0A 96 24 54 18 05 90 
[2019-08-06 14:12:48_TX_\\.\COM10]0A 96 25 54 18 05 91 
[2019-08-06 14:12:49_TX_\\.\COM10]0A 96 26 54 18 05 92 
[2019-08-06 14:12:50_TX_\\.\COM10]0A 96 27 54 18 05 93 
[2019-08-06 14:12:51_TX_\\.\COM10]0A 96 28 54 18 05 94 
[2019-08-06 14:12:51_TX_\\.\COM10]0A 96 29 54 18 05 95 
[2019-08-06 14:12:52_TX_\\.\COM10]0A 96 2A 54 18 05 96 
[2019-08-06 14:12:53_TX_\\.\COM10]0A 96 2B 54 18 05 97 
[2019-08-06 14:12:54_TX_\\.\COM10]0A 96 2C 54 18 05 98 
[2019-08-06 14:12:55_TX_\\.\COM10]0A 96 2D 54 18 05 99 
[2019-08-06 14:12:55_TX_\\.\COM10]0A 96 2E 54 18 05 9A 
[2019-08-06 14:12:56_TX_\\.\COM10]0A 96 2F 54 18 05 9B 
[2019-08-06 14:12:57_TX_\\.\COM10]0A 96 30 54 18 05 9C 
[2019-08-06 14:12:58_TX_\\.\COM10]0A 96 31 54 18 05 9D 
[2019-08-06 14:12:59_TX_\\.\COM10]0A 96 32 54 18 05 9E 
[2019-08-06 14:13:00_TX_\\.\COM10]0A 96 33 54 18 05 9F 
[2019-08-06 14:13:00_TX_\\.\COM10]0A 96 34 54 18 05 A0 
[2019-08-06 14:13:01_TX_\\.\COM10]0A 96 35 54 18 05 A1 
[2019-08-06 14:13:02_TX_\\.\COM10]0A 96 36 54 18 05 A2 
[2019-08-06 14:13:03_TX_\\.\COM10]0A 96 37 54 18 05 A3 
[2019-08-06 14:13:04_TX_\\.\COM10]0A 96 38 54 18 05 A4 
[2019-08-06 14:13:05_TX_\\.\COM10]0A 96 39 54 18 05 A5 
[2019-08-06 14:13:06_TX_\\.\COM10]0A 96 3A 54 18 05 A6 
[2019-08-06 14:13:06_TX_\\.\COM10]0A 96 3B 54 18 05 A7 
[2019-08-06 14:13:07_TX_\\.\COM10]0A 96 3C 54 18 05 A8 
[2019-08-06 14:13:08_TX_\\.\COM10]0A 96 3D 54 18 05 A9 
[2019-08-06 14:13:09_TX_\\.\COM10]0A 96 3E 54 18 05 AA 
[2019-08-06 14:13:10_TX_\\.\COM10]0A 96 3F 54 18 05 AB 
[2019-08-06 14:13:10_TX_\\.\COM10]0A 96 40 54 18 05 AC 
[2019-08-06 14:13:11_TX_\\.\COM10]0A 96 41 54 18 05 AD 
[2019-08-06 14:13:12_TX_\\.\COM10]0A 96 42 54 18 05 AE 
[2019-08-06 14:13:13_TX_\\.\COM10]0A 96 43 54 18 05 AF 
[2019-08-06 14:13:14_TX_\\.\COM10]0A 96 44 54 18 05 B0 
[2019-08-06 14:13:15_TX_\\.\COM10]0A 96 45 54 18 05 B1 
[2019-08-06 14:13:15_TX_\\.\COM10]0A 96 46 54 18 05 B2 
[2019-08-06 14:13:16_TX_\\.\COM10]0A 96 47 54 18 05 B3 
[2019-08-06 14:13:17_TX_\\.\COM10]0A 96 48 54 18 05 B4 
[2019-08-06 14:13:18_TX_\\.\COM10]0A 96 49 54 18 05 B5 
[2019-08-06 14:13:19_TX_\\.\COM10]0A 96 4A 54 18 05 B6 
[2019-08-06 14:13:20_TX_\\.\COM10]0A 96 4B 54 18 05 B7 
[2019-08-06 14:13:21_TX_\\.\COM10]0A 96 4C 54 18 05 B8 
[2019-08-06 14:13:21_TX_\\.\COM10]0A 96 4D 54 18 05 B9 
[2019-08-06 14:13:22_TX_\\.\COM10]0A 96 4E 54 18 05 BA 
[2019-08-06 14:13:23_TX_\\.\COM10]0A 96 4F 54 18 05 BB 
[2019-08-06 14:13:24_TX_\\.\COM10]0A 96 50 54 18 05 BC 
[2019-08-06 14:13:25_TX_\\.\COM10]0A 96 51 54 18 05 BD 
[2019-08-06 14:13:25_TX_\\.\COM10]0A 96 52 54 18 05 BE 
[2019-08-06 14:13:26_TX_\\.\COM10]0A 96 53 54 18 05 BF 
[2019-08-06 14:13:27_TX_\\.\COM10]0A 96 54 54 18 05 C0 
[2019-08-06 14:13:28_TX_\\.\COM10]0A 96 55 54 18 05 C1 
[2019-08-06 14:13:29_TX_\\.\COM10]0A 96 56 54 18 05 C2 
[2019-08-06 14:13:30_TX_\\.\COM10]0A 96 57 54 18 05 C3 
[2019-08-06 14:13:30_TX_\\.\COM10]0A 96 58 54 18 05 C4 
[2019-08-06 14:13:31_TX_\\.\COM10]0A 96 59 54 18 05 C5 
[2019-08-06 14:13:32_TX_\\.\COM10]0A 96 5A 54 18 05 C6 
[2019-08-06 14:13:33_TX_\\.\COM10]0A 96 5B 54 18 05 C7 
[2019-08-06 14:13:34_TX_\\.\COM10]0A 96 5C 54 18 05 C8 
[2019-08-06 14:13:34_TX_\\.\COM10]0A 96 5D 54 18 05 C9 
[2019-08-06 14:13:35_TX_\\.\COM10]0A 96 5E 54 18 05 CA 
[2019-08-06 14:13:36_TX_\\.\COM10]0A 96 5F 54 18 05 CB 
[2019-08-06 14:13:37_TX_\\.\COM10]0A 96 60 54 18 05 CC 
[2019-08-06 14:13:38_TX_\\.\COM10]0A 96 61 54 18 05 CD 
[2019-08-06 14:13:39_TX_\\.\COM10]0A 96 62 54 18 05 CE 
[2019-08-06 14:13:39_TX_\\.\COM10]0A 96 63 54 18 05 CF 
[2019-08-06 14:13:40_TX_\\.\COM10]0A 96 00 54 18 05 6C 
[2019-08-06 14:13:41_TX_\\.\COM10]0A 96 01 54 18 05 6D 
[2019-08-06 14:13:42_TX_\\.\COM10]0A 96 02 54 18 05 6E 
[2019-08-06 14:13:43_TX_\\.\COM10]0A 96 03 54 18 05 6F 
[2019-08-06 14:13:44_TX_\\.\COM10]0A 96 04 54 18 05 70 
[2019-08-06 14:13:45_TX_\\.\COM10]0A 96 05 54 18 05 71 
[2019-08-06 14:13:45_TX_\\.\COM10]0A 96 06 54 18 05 72 
[2019-08-06 14:13:46_TX_\\.\COM10]0A 96 07 54 18 05 73 
[2019-08-06 14:13:47_TX_\\.\COM10]0A 96 08 54 18 05 74 
[2019-08-06 14:13:48_TX_\\.\COM10]0A 96 09 54 18 05 75 
[2019-08-06 14:13:49_TX_\\.\COM10]0A 96 0A 54 18 05 76 
[2019-08-06 14:13:49_TX_\\.\COM10]0A 96 0B 54 18 05 77 
[2019-08-06 14:13:50_TX_\\.\COM10]0A 96 0C 54 18 05 78 
[2019-08-06 14:13:51_TX_\\.\COM10]0A 96 0D 54 18 05 79 
[2019-08-06 14:13:52_TX_\\.\COM10]0A 96 0E 54 18 05 7A 
[2019-08-06 14:13:53_TX_\\.\COM10]0A 96 0F 54 18 05 7B 
[2019-08-06 14:13:54_TX_\\.\COM10]0A 96 10 54 18 05 7C 
[2019-08-06 14:13:54_TX_\\.\COM10]0A 96 11 54 18 05 7D 
[2019-08-06 14:13:55_TX_\\.\COM10]0A 96 12 54 18 05 7E 
[2019-08-06 14:13:56_TX_\\.\COM10]0A 96 13 54 18 05 7F 
[2019-08-06 14:13:57_TX_\\.\COM10]0A 96 14 54 18 05 80 
[2019-08-06 14:13:58_TX_\\.\COM10]0A 96 15 54 18 05 81 
[2019-08-06 14:13:59_TX_\\.\COM10]0A 96 16 54 18 05 82 
[2019-08-06 14:14:00_TX_\\.\COM10]0A 96 17 54 18 05 83 
[2019-08-06 14:14:00_TX_\\.\COM10]0A 96 18 54 18 05 84 
[2019-08-06 14:14:01_TX_\\.\COM10]0A 96 19 54 18 05 85 
[2019-08-06 14:14:02_TX_\\.\COM10]0A 96 1A 54 18 05 86 
[2019-08-06 14:14:03_TX_\\.\COM10]0A 96 1B 54 18 05 87 
[2019-08-06 14:14:04_TX_\\.\COM10]0A 96 1C 54 18 05 88 
[2019-08-06 14:14:04_TX_\\.\COM10]0A 96 1D 54 18 05 89 
[2019-08-06 14:14:05_TX_\\.\COM10]0A 96 1E 54 18 05 8A 
[2019-08-06 14:14:06_TX_\\.\COM10]0A 96 1F 54 18 05 8B 
[2019-08-06 14:14:07_TX_\\.\COM10]0A 96 20 54 18 05 8C 
[2019-08-06 14:14:08_TX_\\.\COM10]0A 96 21 54 18 05 8D 
[2019-08-06 14:14:09_TX_\\.\COM10]0A 96 22 54 18 05 8E 
[2019-08-06 14:14:09_TX_\\.\COM10]0A 96 23 54 18 05 8F 
[2019-08-06 14:14:10_TX_\\.\COM10]0A 96 24 54 18 05 90 
[2019-08-06 14:14:11_TX_\\.\COM10]0A 96 25 54 18 05 91 
[2019-08-06 14:14:12_TX_\\.\COM10]0A 96 26 54 18 05 92 
[2019-08-06 14:14:13_TX_\\.\COM10]0A 96 27 54 18 05 93 
[2019-08-06 14:14:14_TX_\\.\COM10]0A 96 28 54 18 05 94 
[2019-08-06 14:14:15_TX_\\.\COM10]0A 96 29 54 18 05 95 
[2019-08-06 14:14:15_TX_\\.\COM10]0A 96 2A 54 18 05 96 
[2019-08-06 14:14:16_TX_\\.\COM10]0A 96 2B 54 18 05 97 
[2019-08-06 14:14:17_TX_\\.\COM10]0A 96 2C 54 18 05 98 
[2019-08-06 14:14:18_TX_\\.\COM10]0A 96 2D 54 18 05 99 
[2019-08-06 14:14:19_TX_\\.\COM10]0A 96 2E 54 18 05 9A 
[2019-08-06 14:14:19_TX_\\.\COM10]0A 96 2F 54 18 05 9B 
[2019-08-06 14:14:20_TX_\\.\COM10]0A 96 30 54 18 05 9C 
[2019-08-06 14:14:21_TX_\\.\COM10]0A 96 31 54 18 05 9D 
[2019-08-06 14:14:22_TX_\\.\COM10]0A 96 32 54 18 05 9E 
[2019-08-06 14:14:23_TX_\\.\COM10]0A 96 33 54 18 05 9F 
[2019-08-06 14:14:24_TX_\\.\COM10]0A 96 34 54 18 05 A0 
[2019-08-06 14:14:25_TX_\\.\COM10]0A 96 35 54 18 05 A1 
[2019-08-06 14:14:25_TX_\\.\COM10]0A 96 36 54 18 05 A2 
[2019-08-06 14:14:26_TX_\\.\COM10]0A 96 37 54 18 05 A3 
[2019-08-06 14:14:27_TX_\\.\COM10]0A 96 38 54 18 05 A4 
[2019-08-06 14:14:28_TX_\\.\COM10]0A 96 39 54 18 05 A5 
[2019-08-06 14:14:29_TX_\\.\COM10]0A 96 3A 54 18 05 A6 
[2019-08-06 14:14:30_TX_\\.\COM10]0A 96 3B 54 18 05 A7 
[2019-08-06 14:14:30_TX_\\.\COM10]0A 96 3C 54 18 05 A8 
[2019-08-06 14:14:31_TX_\\.\COM10]0A 96 3D 54 18 05 A9 
[2019-08-06 14:14:32_TX_\\.\COM10]0A 96 3E 54 18 05 AA 
[2019-08-06 14:14:33_TX_\\.\COM10]0A 96 3F 54 18 05 AB 
[2019-08-06 14:14:34_TX_\\.\COM10]0A 96 40 54 18 05 AC 
[2019-08-06 14:14:34_TX_\\.\COM10]0A 96 41 54 18 05 AD 
[2019-08-06 14:14:35_TX_\\.\COM10]0A 96 42 54 18 05 AE 
[2019-08-06 14:14:36_TX_\\.\COM10]0A 96 43 54 18 05 AF 
[2019-08-06 14:14:37_TX_\\.\COM10]0A 96 44 54 18 05 B0 
[2019-08-06 14:14:38_TX_\\.\COM10]0A 96 45 54 18 05 B1 
[2019-08-06 14:14:39_TX_\\.\COM10]0A 96 46 54 18 05 B2 
[2019-08-06 14:14:39_TX_\\.\COM10]0A 96 47 54 18 05 B3 
[2019-08-06 14:14:40_TX_\\.\COM10]0A 96 48 54 18 05 B4 
[2019-08-06 14:14:41_TX_\\.\COM10]0A 96 49 54 18 05 B5 
[2019-08-06 14:14:42_TX_\\.\COM10]0A 96 4A 54 18 05 B6 
[2019-08-06 14:14:43_TX_\\.\COM10]0A 96 4B 54 18 05 B7 
[2019-08-06 14:14:44_TX_\\.\COM10]0A 96 4C 54 18 05 B8 
[2019-08-06 14:14:45_TX_\\.\COM10]0A 96 4D 54 18 05 B9 
[2019-08-06 14:14:45_TX_\\.\COM10]0A 96 4E 54 18 05 BA 
[2019-08-06 14:14:46_TX_\\.\COM10]0A 96 4F 54 18 05 BB 
[2019-08-06 14:14:47_TX_\\.\COM10]0A 96 50 54 18 05 BC 
[2019-08-06 14:14:48_TX_\\.\COM10]0A 96 51 54 18 05 BD 
[2019-08-06 14:14:49_TX_\\.\COM10]0A 96 52 54 18 05 BE 
[2019-08-06 14:14:49_TX_\\.\COM10]0A 96 53 54 18 05 BF 
[2019-08-06 14:14:50_TX_\\.\COM10]0A 96 54 54 18 05 C0 
[2019-08-06 14:14:51_TX_\\.\COM10]0A 96 55 54 18 05 C1 
[2019-08-06 14:14:52_TX_\\.\COM10]0A 96 56 54 18 05 C2 
[2019-08-06 14:14:53_TX_\\.\COM10]0A 96 57 54 18 05 C3 
[2019-08-06 14:14:54_TX_\\.\COM10]0A 96 58 54 18 05 C4 
[2019-08-06 14:14:54_TX_\\.\COM10]0A 96 59 54 18 05 C5 
[2019-08-06 14:14:55_TX_\\.\COM10]0A 96 5A 54 18 05 C6 
[2019-08-06 14:14:56_TX_\\.\COM10]0A 96 5B 54 18 05 C7 
[2019-08-06 14:14:57_TX_\\.\COM10]0A 96 5C 54 18 05 C8 
[2019-08-06 14:14:58_TX_\\.\COM10]0A 96 5D 54 18 05 C9 
[2019-08-06 14:14:59_TX_\\.\COM10]0A 96 5E 54 18 05 CA 
[2019-08-06 14:14:59_TX_\\.\COM10]0A 96 5F 54 18 05 CB 
[2019-08-06 14:15:00_TX_\\.\COM10]0A 96 60 54 18 05 CC 
[2019-08-06 14:15:01_TX_\\.\COM10]0A 96 61 54 18 05 CD 
[2019-08-06 14:15:02_TX_\\.\COM10]0A 96 62 54 18 05 CE 
[2019-08-06 14:15:03_TX_\\.\COM10]0A 96 63 54 18 05 CF 
[2019-08-06 14:15:04_TX_\\.\COM10]00 04 00 22 00 02 D0 10 
[2019-08-06 14:15:04_TX_\\.\COM10]01 04 00 22 00 02 D1 C1 
[2019-08-06 14:15:05_TX_\\.\COM10]02 04 00 22 00 02 D1 F2 
[2019-08-06 14:15:06_TX_\\.\COM10]03 04 00 22 00 02 D0 23 
[2019-08-06 14:15:07_TX_\\.\COM10]04 04 00 22 00 02 D1 94 
[2019-08-06 14:15:08_TX_\\.\COM10]05 04 00 22 00 02 D0 45 
[2019-08-06 14:15:09_TX_\\.\COM10]06 04 00 22 00 02 D0 76 
[2019-08-06 14:15:09_TX_\\.\COM10]07 04 00 22 00 02 D1 A7 
[2019-08-06 14:15:10_TX_\\.\COM10]08 04 00 22 00 02 D1 58 
[2019-08-06 14:15:11_TX_\\.\COM10]09 04 00 22 00 02 D0 89 
[2019-08-06 14:15:12_TX_\\.\COM10]0A 04 00 22 00 02 D0 BA 
[2019-08-06 14:15:13_TX_\\.\COM10]0B 04 00 22 00 02 D1 6B 
[2019-08-06 14:15:13_TX_\\.\COM10]0C 04 00 22 00 02 D0 DC 
[2019-08-06 14:15:14_TX_\\.\COM10]0D 04 00 22 00 02 D1 0D 
[2019-08-06 14:15:15_TX_\\.\COM10]0E 04 00 22 00 02 D1 3E 
[2019-08-06 14:15:16_TX_\\.\COM10]0F 04 00 22 00 02 D0 EF 
[2019-08-06 14:15:17_TX_\\.\COM10]10 04 00 22 00 02 D2 80 
[2019-08-06 14:15:18_TX_\\.\COM10]11 04 00 22 00 02 D3 51 
[2019-08-06 14:15:19_TX_\\.\COM10]12 04 00 22 00 02 D3 62 
[2019-08-06 14:15:19_TX_\\.\COM10]13 04 00 22 00 02 D2 B3 
[2019-08-06 14:15:20_TX_\\.\COM10]14 04 00 22 00 02 D3 04 
[2019-08-06 14:15:21_TX_\\.\COM10]15 04 00 22 00 02 D2 D5 
[2019-08-06 14:15:22_TX_\\.\COM10]16 04 00 22 00 02 D2 E6 
[2019-08-06 14:15:23_TX_\\.\COM10]17 04 00 22 00 02 D3 37 
[2019-08-06 14:15:24_TX_\\.\COM10]18 04 00 22 00 02 D3 C8 
[2019-08-06 14:15:24_TX_\\.\COM10]19 04 00 22 00 02 D2 19 
[2019-08-06 14:15:25_TX_\\.\COM10]1A 04 00 22 00 02 D2 2A 
[2019-08-06 14:15:26_TX_\\.\COM10]1B 04 00 22 00 02 D3 FB 
[2019-08-06 14:15:27_TX_\\.\COM10]1C 04 00 22 00 02 D2 4C 
[2019-08-06 14:15:28_TX_\\.\COM10]1D 04 00 22 00 02 D3 9D 
[2019-08-06 14:15:28_TX_\\.\COM10]1E 04 00 22 00 02 D3 AE 
[2019-08-06 14:15:29_TX_\\.\COM10]1F 04 00 22 00 02 D2 7F 
[2019-08-06 14:15:30_TX_\\.\COM10]20 04 00 22 00 02 D7 70 
[2019-08-06 14:15:31_TX_\\.\COM10]21 04 00 22 00 02 D6 A1 
[2019-08-06 14:15:32_TX_\\.\COM10]22 04 00 22 00 02 D6 92 
[2019-08-06 14:15:33_TX_\\.\COM10]23 04 00 22 00 02 D7 43 
[2019-08-06 14:15:34_TX_\\.\COM10]24 04 00 22 00 02 D6 F4 
[2019-08-06 14:15:34_TX_\\.\COM10]25 04 00 22 00 02 D7 25 
[2019-08-06 14:15:35_TX_\\.\COM10]26 04 00 22 00 02 D7 16 
[2019-08-06 14:15:36_TX_\\.\COM10]27 04 00 22 00 02 D6 C7 
[2019-08-06 14:15:37_TX_\\.\COM10]28 04 00 22 00 02 D6 38 
[2019-08-06 14:15:38_TX_\\.\COM10]29 04 00 22 00 02 D7 E9 
[2019-08-06 14:15:39_TX_\\.\COM10]2A 04 00 22 00 02 D7 DA 
[2019-08-06 14:15:39_TX_\\.\COM10]2B 04 00 22 00 02 D6 0B 
[2019-08-06 14:15:40_TX_\\.\COM10]2C 04 00 22 00 02 D7 BC 
[2019-08-06 14:15:41_TX_\\.\COM10]2D 04 00 22 00 02 D6 6D 
[2019-08-06 14:15:42_TX_\\.\COM10]2E 04 00 22 00 02 D6 5E 
[2019-08-06 14:15:43_TX_\\.\COM10]2F 04 00 22 00 02 D7 8F 
[2019-08-06 14:15:43_TX_\\.\COM10]30 04 00 22 00 02 D5 E0 
[2019-08-06 14:15:44_TX_\\.\COM10]31 04 00 22 00 02 D4 31 
[2019-08-06 14:15:45_TX_\\.\COM10]32 04 00 22 00 02 D4 02 
[2019-08-06 14:15:46_TX_\\.\COM10]33 04 00 22 00 02 D5 D3 
[2019-08-06 14:15:47_TX_\\.\COM10]34 04 00 22 00 02 D4 64 
[2019-08-06 14:15:48_TX_\\.\COM10]35 04 00 22 00 02 D5 B5 
[2019-08-06 14:15:49_TX_\\.\COM10]36 04 00 22 00 02 D5 86 
[2019-08-06 14:15:49_TX_\\.\COM10]37 04 00 22 00 02 D4 57 
[2019-08-06 14:15:50_TX_\\.\COM10]38 04 00 22 00 02 D4 A8 
[2019-08-06 14:15:51_TX_\\.\COM10]39 04 00 22 00 02 D5 79 
[2019-08-06 14:15:52_TX_\\.\COM10]3A 04 00 22 00 02 D5 4A 
[2019-08-06 14:15:53_TX_\\.\COM10]3B 04 00 22 00 02 D4 9B 
[2019-08-06 14:15:54_TX_\\.\COM10]3C 04 00 22 00 02 D5 2C 
[2019-08-06 14:15:54_TX_\\.\COM10]3D 04 00 22 00 02 D4 FD 
[2019-08-06 14:15:55_TX_\\.\COM10]3E 04 00 22 00 02 D4 CE 
[2019-08-06 14:15:56_TX_\\.\COM10]3F 04 00 22 00 02 D5 1F 
[2019-08-06 14:15:57_TX_\\.\COM10]40 04 00 22 00 02 DE D0 
[2019-08-06 14:15:58_TX_\\.\COM10]41 04 00 22 00 02 DF 01 
[2019-08-06 14:15:58_TX_\\.\COM10]42 04 00 22 00 02 DF 32 
[2019-08-06 14:15:59_TX_\\.\COM10]43 04 00 22 00 02 DE E3 
[2019-08-06 14:16:00_TX_\\.\COM10]44 04 00 22 00 02 DF 54 
[2019-08-06 14:16:01_TX_\\.\COM10]45 04 00 22 00 02 DE 85 
[2019-08-06 14:16:02_TX_\\.\COM10]46 04 00 22 00 02 DE B6 
[2019-08-06 14:16:03_TX_\\.\COM10]47 04 00 22 00 02 DF 67 
[2019-08-06 14:16:04_TX_\\.\COM10]48 04 00 22 00 02 DF 98 
[2019-08-06 14:16:04_TX_\\.\COM10]49 04 00 22 00 02 DE 49 
[2019-08-06 14:16:05_TX_\\.\COM10]4A 04 00 22 00 02 DE 7A 
[2019-08-06 14:16:06_TX_\\.\COM10]4B 04 00 22 00 02 DF AB 
[2019-08-06 14:16:07_TX_\\.\COM10]4C 04 00 22 00 02 DE 1C 
[2019-08-06 14:16:08_TX_\\.\COM10]4D 04 00 22 00 02 DF CD 
[2019-08-06 14:16:08_TX_\\.\COM10]4E 04 00 22 00 02 DF FE 
[2019-08-06 14:16:09_TX_\\.\COM10]4F 04 00 22 00 02 DE 2F 
[2019-08-06 14:16:10_TX_\\.\COM10]50 04 00 22 00 02 DC 40 
[2019-08-06 14:16:11_TX_\\.\COM10]51 04 00 22 00 02 DD 91 
[2019-08-06 14:16:12_TX_\\.\COM10]52 04 00 22 00 02 DD A2 
[2019-08-06 14:16:13_TX_\\.\COM10]53 04 00 22 00 02 DC 73 
[2019-08-06 14:16:13_TX_\\.\COM10]54 04 00 22 00 02 DD C4 
[2019-08-06 14:16:14_TX_\\.\COM10]55 04 00 22 00 02 DC 15 
[2019-08-06 14:16:15_TX_\\.\COM10]56 04 00 22 00 02 DC 26 
[2019-08-06 14:16:16_TX_\\.\COM10]57 04 00 22 00 02 DD F7 
[2019-08-06 14:16:17_TX_\\.\COM10]58 04 00 22 00 02 DD 08 
[2019-08-06 14:16:18_TX_\\.\COM10]59 04 00 22 00 02 DC D9 
[2019-08-06 14:16:18_TX_\\.\COM10]5A 04 00 22 00 02 DC EA 
[2019-08-06 14:16:19_TX_\\.\COM10]5B 04 00 22 00 02 DD 3B 
[2019-08-06 14:16:20_TX_\\.\COM10]5C 04 00 22 00 02 DC 8C 
[2019-08-06 14:16:21_TX_\\.\COM10]5D 04 00 22 00 02 DD 5D 
[2019-08-06 14:16:22_TX_\\.\COM10]5E 04 00 22 00 02 DD 6E 
[2019-08-06 14:16:23_TX_\\.\COM10]5F 04 00 22 00 02 DC BF 
[2019-08-06 14:16:23_TX_\\.\COM10]60 04 00 22 00 02 D9 B0 
[2019-08-06 14:16:24_TX_\\.\COM10]61 04 00 22 00 02 D8 61 
[2019-08-06 14:16:25_TX_\\.\COM10]62 04 00 22 00 02 D8 52 
[2019-08-06 14:16:26_TX_\\.\COM10]63 04 00 22 00 02 D9 83 
[2019-08-06 14:16:27_TX_\\.\COM10]02 0C 00 00 00 00 00 05 11 00 16 03 
[2019-08-06 14:16:28_TX_\\.\COM10]02 0C 00 00 00 01 00 05 11 00 17 03 
[2019-08-06 14:16:28_TX_\\.\COM10]02 0C 00 00 00 02 00 05 11 00 18 03 
[2019-08-06 14:16:29_TX_\\.\COM10]02 0C 00 00 00 03 00 05 11 00 19 03 
[2019-08-06 14:16:30_TX_\\.\COM10]02 0C 00 00 00 04 00 05 11 00 1A 03 
[2019-08-06 14:16:31_TX_\\.\COM10]02 0C 00 00 00 05 00 05 11 00 1B 03 
[2019-08-06 14:16:32_TX_\\.\COM10]02 0C 00 00 00 06 00 05 11 00 1C 03 
[2019-08-06 14:16:32_TX_\\.\COM10]02 0C 00 00 00 07 00 05 11 00 1D 03 
[2019-08-06 14:16:33_TX_\\.\COM10]02 0C 00 00 00 08 00 05 11 00 1E 03 
[2019-08-06 14:16:34_TX_\\.\COM10]02 0C 00 00 00 09 00 05 11 00 1F 03 
[2019-08-06 14:16:35_TX_\\.\COM10]02 0C 00 00 00 0A 00 05 11 00 20 03 
[2019-08-06 14:16:36_TX_\\.\COM10]02 0C 00 00 00 0B 00 05 11 00 21 03 
[2019-08-06 14:16:37_TX_\\.\COM10]02 0C 00 00 00 0C 00 05 11 00 22 03 
[2019-08-06 14:16:37_TX_\\.\COM10]02 0C 00 00 00 0D 00 05 11 00 23 03 
[2019-08-06 14:16:38_TX_\\.\COM10]02 0C 00 00 00 0E 00 05 11 00 24 03 
[2019-08-06 14:16:39_TX_\\.\COM10]02 0C 00 00 00 0F 00 05 11 00 25 03 
[2019-08-06 14:16:40_TX_\\.\COM10]02 0C 00 00 00 10 00 05 11 00 26 03 
[2019-08-06 14:16:41_TX_\\.\COM10]02 0C 00 00 00 11 00 05 11 00 27 03 
[2019-08-06 14:16:41_TX_\\.\COM10]02 0C 00 00 00 12 00 05 11 00 28 03 
[2019-08-06 14:16:42_TX_\\.\COM10]02 0C 00 00 00 13 00 05 11 00 29 03 
[2019-08-06 14:16:43_TX_\\.\COM10]02 0C 00 00 00 14 00 05 11 00 2A 03 
[2019-08-06 14:16:44_TX_\\.\COM10]02 0C 00 00 00 15 00 05 11 00 2B 03 
[2019-08-06 14:16:45_TX_\\.\COM10]02 0C 00 00 00 16 00 05 11 00 2C 03 
[2019-08-06 14:16:46_TX_\\.\COM10]02 0C 00 00 00 17 00 05 11 00 2D 03 
[2019-08-06 14:16:46_TX_\\.\COM10]02 0C 00 00 00 18 00 05 11 00 2E 03 
[2019-08-06 14:16:47_TX_\\.\COM10]02 0C 00 00 00 19 00 05 11 00 2F 03 
[2019-08-06 14:16:48_TX_\\.\COM10]02 0C 00 00 00 1A 00 05 11 00 30 03 
[2019-08-06 14:16:49_TX_\\.\COM10]02 0C 00 00 00 1B 00 05 11 00 31 03 
[2019-08-06 14:16:50_TX_\\.\COM10]02 0C 00 00 00 1C 00 05 11 00 32 03 
[2019-08-06 14:16:51_TX_\\.\COM10]02 0C 00 00 00 1D 00 05 11 00 33 03 
[2019-08-06 14:16:52_TX_\\.\COM10]02 0C 00 00 00 1E 00 05 11 00 34 03 
[2019-08-06 14:16:52_TX_\\.\COM10]02 0C 00 00 00 1F 00 05 11 00 35 03 
[2019-08-06 14:16:53_TX_\\.\COM10]02 0C 00 00 00 20 00 05 11 00 36 03 
[2019-08-06 14:16:54_TX_\\.\COM10]02 0C 00 00 00 21 00 05 11 00 37 03 
[2019-08-06 14:16:55_TX_\\.\COM10]02 0C 00 00 00 22 00 05 11 00 38